
T1F38 000:407 SEGGER J-Link V4.80g Log File (0001ms, 0265ms total)
T1F38 000:407 DLL Compiled: Feb 13 2014 20:50:02 (0001ms, 0265ms total)
T1F38 000:407 Logging started @ 2020-04-09 21:52 (0001ms, 0265ms total)
T1F38 000:408 JLINK_SetWarnOutHandler(...) (0000ms, 0265ms total)
T1F38 000:408 JLINK_OpenEx(...)
Firmware: J-Link ARM V8 compiled Dec  1 2015 11:42:48
Hardware: V8.00
S/N: 20080643
Feature(s): RDI,FlashDL,FlashBP,JFlash,GDBFull  returns O.K. (0262ms, 0527ms total)
T1F38 000:670 JLINK_SetErrorOutHandler(...) (0000ms, 0527ms total)
T1F38 000:670 JLINK_ExecCommand("ProjectFile = "D:\TU LIEU CONG VIEC\THIEN NAM\FIMWARE M4 KIEL V5\SHC210-TEST\JLinkSettings.ini"", ...)  returns 0x00 (0000ms, 0527ms total)
T1F38 000:674 JLINK_ExecCommand("Device = TM4C123AE6PM", ...)Device "TM4C123AE6PM" selected (128 KB flash, 32 KB RAM).  returns 0x00 (0003ms, 0530ms total)
T1F38 000:677 JLINK_ExecCommand("DisableConnectionTimeout", ...)  returns 0x01 (0000ms, 0530ms total)
T1F38 000:677 JLINK_GetHardwareVersion()  returns 0x13880 (0000ms, 0530ms total)
T1F38 000:677 JLINK_GetDLLVersion()  returns 48007 (0000ms, 0530ms total)
T1F38 000:677 JLINK_GetFirmwareString(...) (0000ms, 0530ms total)
T1F38 000:685 JLINK_GetDLLVersion()  returns 48007 (0000ms, 0530ms total)
T1F38 000:685 JLINK_GetCompileDateTime() (0000ms, 0530ms total)
T1F38 000:687 JLINK_GetFirmwareString(...) (0000ms, 0530ms total)
T1F38 000:689 JLINK_GetHardwareVersion()  returns 0x13880 (0000ms, 0530ms total)
T1F38 000:697 JLINK_TIF_Select(JLINKARM_TIF_JTAG)  returns 0x00 (0002ms, 0532ms total)
T1F38 000:699 JLINK_SetSpeed(5000) (0001ms, 0533ms total)
T1F38 000:700 JLINK_GetIdData(...) >0x2F8 JTAG>TotalIRLen = 4, IRPrint = 0x01 >0x30 JTAG> >0x210 JTAG> >0x70 JTAG> >0x40 JTAG> >0x40 JTAG> >0x40 JTAG> >0x48 JTAG> >0x78 JTAG> >0x40 JTAG> >0x30 JTAG> >0x40 JTAG> >0x40 JTAG> >0x30 JTAG> >0x40 JTAG> >0x48 JTAG>Found Cortex-M4 r0p1, Little endian. >0x1D0 JTAG> >0x1D8 JTAG> >0x1D8 JTAG>FPUnit: 6 code (BP) slots and 2 literal slots >0x1D8 JTAG> >0x1D8 JTAG> >0x1D0 JTAG> >0x1D8 JTAG>TPIU fitted. >0x1D8 JTAG>ETM fitted. >0x1D8 JTAG> -- CPU is running
 >0x1D8 JTAG> ScanLen=4 NumDevices=1 aId[0]=0x4BA00477 aIrRead[0]=0 aScanLen[0]=0 aScanRead[0]=0 (0029ms, 0562ms total)
T1F38 000:729 JLINK_JTAG_GetDeviceID(DeviceIndex = 0)  returns 0x4BA00477 (0000ms, 0562ms total)
T1F38 000:729 JLINK_JTAG_GetDeviceInfo(DeviceIndex = 0)  returns 0x00 (0000ms, 0562ms total)
T1F38 000:729 JLINK_GetDeviceFamily()  returns 14 (0000ms, 0562ms total)
T1F38 000:730 JLINK_ReadMem (0xE00FFFF0, 0x0010 Bytes, ...) -- CPU is running >0x288 JTAG> -- Data:  0D 00 00 00 10 00 00 00 05 00 00 00 B1 00 00 00  returns 0x00 (0001ms, 0563ms total)
T1F38 000:731 JLINK_ReadMem (0xE00FFFD0, 0x0020 Bytes, ...) -- CPU is running >0x370 JTAG> -- Data:  04 00 00 00 00 00 00 00 00 00 00 00 00 00 00 00 ...  returns 0x00 (0002ms, 0565ms total)
T1F38 000:733 JLINK_ReadMem (0xE00FF000, 0x0018 Bytes, ...) -- CPU is running >0x2F8 JTAG> -- Data:  03 F0 F0 FF 03 20 F0 FF 03 30 F0 FF 03 10 F0 FF ...  returns 0x00 (0001ms, 0566ms total)
T1F38 000:734 JLINK_ReadMemU32(0xE000ED00, 0x0001 Items, ...) -- CPU is running >0x1D8 JTAG> -- Data:  41 C2 0F 41  returns 0x01 (0001ms, 0567ms total)
T1F38 000:735 JLINK_ReadMemU32(0xE000EF40, 0x0001 Items, ...) -- CPU is running >0x1D8 JTAG> -- Data:  21 00 11 10  returns 0x01 (0001ms, 0568ms total)
T1F38 000:736 JLINK_ReadMemU32(0xE000EF44, 0x0001 Items, ...) -- CPU is running >0x1D8 JTAG> -- Data:  11 00 00 11  returns 0x01 (0001ms, 0569ms total)
T1F38 000:737 JLINK_SetResetType(JLINKARM_RESET_TYPE_NORMAL)  returns JLINKARM_RESET_TYPE_NORMAL (0000ms, 0569ms total)
T1F38 000:737 JLINK_Reset() -- CPU is running >0x1D0 JTAG> -- CPU is running >0x1D0 JTAG> -- CPU is running >0x208 JTAG> -- CPU is running >0x1D8 JTAG> -- CPU is running >0x1D8 JTAG> -- CPU is running >0x1D0 JTAG> -- CPU is running >0x1D0 JTAG> -- CPU is running >0x1D8 JTAG> >0x170 JTAG> >0x1598 JTAG> >0x40 JTAG> >0x40 JTAG> >0x30 JTAG> >0x40 JTAG> >0x48 JTAG> >0x40 JTAG> >0x1D0 JTAG> >0x1D0 JTAG> >0x1D0 JTAG> >0x1D0 JTAG> >0x1D0 JTAG> >0x1D8 JTAG> >0x1D0 JTAG> >0x1D8 JTAG> >0x1D8 JTAG>
 (0038ms, 0607ms total)
T1F38 000:775 JLINK_Halt()  returns 0x00 (0000ms, 0607ms total)
T1F38 000:775 JLINK_IsHalted()  returns TRUE (0000ms, 0607ms total)
T1F38 000:775 JLINK_ReadMemU32(0xE000EDF0, 0x0001 Items, ...) >0x1D8 JTAG> -- Data:  03 00 03 00  returns 0x01 (0001ms, 0608ms total)
T1F38 000:776 JLINK_WriteU32(0xE000EDF0, 0xA05F0003) >0x1D0 JTAG>  returns 0x00 (0001ms, 0609ms total)
T1F38 000:777 JLINK_WriteU32(0xE000EDFC, 0x01000000) >0x1D0 JTAG>  returns 0x00 (0001ms, 0610ms total)
T1F38 000:783 JLINK_GetHWStatus(...)  returns 0x00 (0001ms, 0611ms total)
T1F38 000:788 JLINK_GetNumBPUnits(Type = 0xFFFFFF00)  returns 0x06 (0000ms, 0611ms total)
T1F38 000:788 JLINK_GetNumBPUnits(Type = 0xF0)  returns 0x2000 (0000ms, 0611ms total)
T1F38 000:788 JLINK_GetNumWPUnits()  returns 0x04 (0000ms, 0611ms total)
T1F38 000:791 JLINK_GetSpeed()  returns 0x12C0 (0000ms, 0611ms total)
T1F38 000:794 JLINK_ReadMemU32(0xE000E004, 0x0001 Items, ...) >0x1D8 JTAG> -- Data:  04 00 00 00  returns 0x01 (0001ms, 0612ms total)
T1F38 000:795 JLINK_ReadMemU32(0xE000E004, 0x0001 Items, ...) >0x1D8 JTAG> -- Data:  04 00 00 00  returns 0x01 (0002ms, 0614ms total)
T1F38 000:797 JLINK_WriteMem(0xE0001000, 0x001C Bytes, ...) -- Data:  01 00 00 00 00 00 00 00 00 00 00 00 00 00 00 00 ... >0x2F0 JTAG>  returns 0x1C (0001ms, 0615ms total)
T1F38 000:798 JLINK_ReadMem (0xE0001000, 0x001C Bytes, ...) >0x338 JTAG> -- Data:  01 00 00 40 00 00 00 00 00 00 00 00 00 00 00 00 ...  returns 0x00 (0001ms, 0616ms total)
T1F38 000:799 JLINK_Halt()  returns 0x00 (0000ms, 0616ms total)
T1F38 000:799 JLINK_IsHalted()  returns TRUE (0000ms, 0616ms total)
T1F38 000:802 JLINK_WriteMem(0x20000000, 0x0128 Bytes, ...) -- Data:  00 BE 0A E0 0D 78 2D 06 68 40 08 24 40 00 00 D3 ... >0xF38 JTAG>  returns 0x128 (0003ms, 0619ms total)
T1F38 000:805 JLINK_WriteReg(R0, 0x00000000)  returns 0x00 (0000ms, 0619ms total)
T1F38 000:805 JLINK_WriteReg(R1, 0x04C4B400)  returns 0x00 (0000ms, 0619ms total)
T1F38 000:805 JLINK_WriteReg(R2, 0x00000001)  returns 0x00 (0000ms, 0619ms total)
T1F38 000:805 JLINK_WriteReg(R3, 0x00000000)  returns 0x00 (0000ms, 0619ms total)
T1F38 000:805 JLINK_WriteReg(R4, 0x00000000)  returns 0x00 (0000ms, 0619ms total)
T1F38 000:805 JLINK_WriteReg(R5, 0x00000000)  returns 0x00 (0000ms, 0619ms total)
T1F38 000:805 JLINK_WriteReg(R6, 0x00000000)  returns 0x00 (0000ms, 0619ms total)
T1F38 000:805 JLINK_WriteReg(R7, 0x00000000)  returns 0x00 (0000ms, 0619ms total)
T1F38 000:805 JLINK_WriteReg(R8, 0x00000000)  returns 0x00 (0000ms, 0619ms total)
T1F38 000:805 JLINK_WriteReg(R9, 0x20000124)  returns 0x00 (0000ms, 0619ms total)
T1F38 000:805 JLINK_WriteReg(R10, 0x00000000)  returns 0x00 (0000ms, 0619ms total)
T1F38 000:805 JLINK_WriteReg(R11, 0x00000000)  returns 0x00 (0000ms, 0619ms total)
T1F38 000:805 JLINK_WriteReg(R12, 0x00000000)  returns 0x00 (0000ms, 0619ms total)
T1F38 000:805 JLINK_WriteReg(R13 (SP), 0x20001000)  returns 0x00 (0000ms, 0619ms total)
T1F38 000:805 JLINK_WriteReg(R14, 0x20000001)  returns 0x00 (0000ms, 0619ms total)
T1F38 000:805 JLINK_WriteReg(R15 (PC), 0x20000038)  returns 0x00 (0000ms, 0619ms total)
T1F38 000:805 JLINK_WriteReg(XPSR, 0x01000000)  returns 0x00 (0000ms, 0619ms total)
T1F38 000:805 JLINK_WriteReg(MSP, 0x20001000)  returns 0x00 (0000ms, 0619ms total)
T1F38 000:805 JLINK_WriteReg(PSP, 0x20001000)  returns 0x00 (0000ms, 0619ms total)
T1F38 000:805 JLINK_WriteReg(CFBP, 0x00000000)  returns 0x00 (0000ms, 0619ms total)
T1F38 000:805 JLINK_SetBPEx(Addr = 0x20000000, Type = 0xFFFFFFF2) >0x1D8 JTAG>  returns 0x00000001 (0002ms, 0621ms total)
T1F38 000:807 JLINK_Go() >0x1D0 JTAG> >0x1D0 JTAG> >0x1D0 JTAG> >0x1D0 JTAG> >0x1D0 JTAG> >0x1D0 JTAG> >0x1D0 JTAG> >0x2C8 JTAG> >0x1E8 JTAG> >0x1E8 JTAG> >0x1E8 JTAG> >0x1E8 JTAG> >0x1E8 JTAG> >0x1E8 JTAG> >0x218 JTAG> >0x218 JTAG> (0017ms, 0638ms total)
T1F38 000:824 JLINK_IsHalted() >0x170 JTAG> >0x1598 JTAG> >0x1D8 JTAG>  returns TRUE (0006ms, 0644ms total)
T1F38 000:830 JLINK_ReadReg(R15 (PC))  returns 0x20000000 (0000ms, 0638ms total)
T1F38 000:830 JLINK_ClrBPEx(BPHandle = 0x00000001)  returns 0x00 (0000ms, 0638ms total)
T1F38 000:830 JLINK_ReadReg(R0)  returns 0x00000000 (0000ms, 0638ms total)
T1F38 000:831 JLINK_WriteReg(R0, 0x00000000)  returns 0x00 (0000ms, 0638ms total)
T1F38 000:831 JLINK_WriteReg(R1, 0x04C4B400)  returns 0x00 (0000ms, 0638ms total)
T1F38 000:831 JLINK_WriteReg(R2, 0x00000001)  returns 0x00 (0000ms, 0638ms total)
T1F38 000:831 JLINK_WriteReg(R3, 0x00000000)  returns 0x00 (0000ms, 0638ms total)
T1F38 000:831 JLINK_WriteReg(R4, 0x00000000)  returns 0x00 (0000ms, 0638ms total)
T1F38 000:831 JLINK_WriteReg(R5, 0x00000000)  returns 0x00 (0000ms, 0638ms total)
T1F38 000:831 JLINK_WriteReg(R6, 0x00000000)  returns 0x00 (0000ms, 0638ms total)
T1F38 000:831 JLINK_WriteReg(R7, 0x00000000)  returns 0x00 (0000ms, 0638ms total)
T1F38 000:831 JLINK_WriteReg(R8, 0x00000000)  returns 0x00 (0000ms, 0638ms total)
T1F38 000:831 JLINK_WriteReg(R9, 0x20000124)  returns 0x00 (0000ms, 0638ms total)
T1F38 000:831 JLINK_WriteReg(R10, 0x00000000)  returns 0x00 (0000ms, 0638ms total)
T1F38 000:831 JLINK_WriteReg(R11, 0x00000000)  returns 0x00 (0000ms, 0638ms total)
T1F38 000:831 JLINK_WriteReg(R12, 0x00000000)  returns 0x00 (0000ms, 0638ms total)
T1F38 000:831 JLINK_WriteReg(R13 (SP), 0x20001000)  returns 0x00 (0000ms, 0638ms total)
T1F38 000:831 JLINK_WriteReg(R14, 0x20000001)  returns 0x00 (0000ms, 0638ms total)
T1F38 000:831 JLINK_WriteReg(R15 (PC), 0x20000056)  returns 0x00 (0000ms, 0638ms total)
T1F38 000:831 JLINK_WriteReg(XPSR, 0x01000000)  returns 0x00 (0000ms, 0638ms total)
T1F38 000:831 JLINK_WriteReg(MSP, 0x20001000)  returns 0x00 (0000ms, 0638ms total)
T1F38 000:831 JLINK_WriteReg(PSP, 0x20001000)  returns 0x00 (0000ms, 0638ms total)
T1F38 000:831 JLINK_WriteReg(CFBP, 0x00000000)  returns 0x00 (0000ms, 0638ms total)
T1F38 000:831 JLINK_SetBPEx(Addr = 0x20000000, Type = 0xFFFFFFF2)  returns 0x00000002 (0000ms, 0638ms total)
T1F38 000:831 JLINK_Go() >0x2C8 JTAG> >0x1E8 JTAG> >0x1E8 JTAG> >0x218 JTAG> >0x218 JTAG> (0006ms, 0644ms total)
T1F38 000:837 JLINK_IsHalted() >0x170 JTAG>  returns FALSE (0001ms, 0645ms total)
T1F38 000:887 JLINK_IsHalted() >0x170 JTAG> >0x1598 JTAG> >0x1D8 JTAG>  returns TRUE (0006ms, 0650ms total)
T1F38 000:893 JLINK_ReadReg(R15 (PC))  returns 0x20000000 (0000ms, 0644ms total)
T1F38 000:893 JLINK_ClrBPEx(BPHandle = 0x00000002)  returns 0x00 (0000ms, 0644ms total)
T1F38 000:893 JLINK_ReadReg(R0)  returns 0x00000000 (0000ms, 0644ms total)
T1F38 000:944 JLINK_WriteReg(R0, 0x00000001)  returns 0x00 (0000ms, 0644ms total)
T1F38 000:944 JLINK_WriteReg(R1, 0x04C4B400)  returns 0x00 (0000ms, 0644ms total)
T1F38 000:944 JLINK_WriteReg(R2, 0x00000001)  returns 0x00 (0000ms, 0644ms total)
T1F38 000:944 JLINK_WriteReg(R3, 0x00000000)  returns 0x00 (0000ms, 0644ms total)
T1F38 000:944 JLINK_WriteReg(R4, 0x00000000)  returns 0x00 (0000ms, 0644ms total)
T1F38 000:944 JLINK_WriteReg(R5, 0x00000000)  returns 0x00 (0000ms, 0644ms total)
T1F38 000:944 JLINK_WriteReg(R6, 0x00000000)  returns 0x00 (0000ms, 0644ms total)
T1F38 000:944 JLINK_WriteReg(R7, 0x00000000)  returns 0x00 (0000ms, 0644ms total)
T1F38 000:944 JLINK_WriteReg(R8, 0x00000000)  returns 0x00 (0000ms, 0644ms total)
T1F38 000:944 JLINK_WriteReg(R9, 0x20000124)  returns 0x00 (0000ms, 0644ms total)
T1F38 000:944 JLINK_WriteReg(R10, 0x00000000)  returns 0x00 (0000ms, 0644ms total)
T1F38 000:944 JLINK_WriteReg(R11, 0x00000000)  returns 0x00 (0000ms, 0644ms total)
T1F38 000:944 JLINK_WriteReg(R12, 0x00000000)  returns 0x00 (0000ms, 0644ms total)
T1F38 000:944 JLINK_WriteReg(R13 (SP), 0x20001000)  returns 0x00 (0000ms, 0644ms total)
T1F38 000:944 JLINK_WriteReg(R14, 0x20000001)  returns 0x00 (0000ms, 0644ms total)
T1F38 000:944 JLINK_WriteReg(R15 (PC), 0x20000052)  returns 0x00 (0000ms, 0644ms total)
T1F38 000:944 JLINK_WriteReg(XPSR, 0x01000000)  returns 0x00 (0000ms, 0644ms total)
T1F38 000:944 JLINK_WriteReg(MSP, 0x20001000)  returns 0x00 (0000ms, 0644ms total)
T1F38 000:944 JLINK_WriteReg(PSP, 0x20001000)  returns 0x00 (0000ms, 0644ms total)
T1F38 000:944 JLINK_WriteReg(CFBP, 0x00000000)  returns 0x00 (0001ms, 0645ms total)
T1F38 000:945 JLINK_SetBPEx(Addr = 0x20000000, Type = 0xFFFFFFF2)  returns 0x00000003 (0000ms, 0645ms total)
T1F38 000:945 JLINK_Go() >0x2C8 JTAG> >0x1E8 JTAG> >0x1E8 JTAG> >0x1E8 JTAG> >0x218 JTAG> >0x218 JTAG> (0006ms, 0651ms total)
T1F38 000:951 JLINK_IsHalted() >0x170 JTAG> >0x1598 JTAG> >0x1D8 JTAG>  returns TRUE (0007ms, 0658ms total)
T1F38 000:958 JLINK_ReadReg(R15 (PC))  returns 0x20000000 (0000ms, 0651ms total)
T1F38 000:958 JLINK_ClrBPEx(BPHandle = 0x00000003)  returns 0x00 (0000ms, 0651ms total)
T1F38 000:958 JLINK_ReadReg(R0)  returns 0x00000000 (0000ms, 0651ms total)
T1F38 000:964 JLINK_WriteMem(0x20000000, 0x0128 Bytes, ...) -- Data:  00 BE 0A E0 0D 78 2D 06 68 40 08 24 40 00 00 D3 ... >0xF38 JTAG>  returns 0x128 (0003ms, 0654ms total)
T1F38 000:967 JLINK_WriteReg(R0, 0x00000000)  returns 0x00 (0000ms, 0654ms total)
T1F38 000:967 JLINK_WriteReg(R1, 0x04C4B400)  returns 0x00 (0000ms, 0654ms total)
T1F38 000:967 JLINK_WriteReg(R2, 0x00000002)  returns 0x00 (0000ms, 0654ms total)
T1F38 000:967 JLINK_WriteReg(R3, 0x00000000)  returns 0x00 (0000ms, 0654ms total)
T1F38 000:967 JLINK_WriteReg(R4, 0x00000000)  returns 0x00 (0000ms, 0654ms total)
T1F38 000:967 JLINK_WriteReg(R5, 0x00000000)  returns 0x00 (0000ms, 0654ms total)
T1F38 000:967 JLINK_WriteReg(R6, 0x00000000)  returns 0x00 (0000ms, 0654ms total)
T1F38 000:967 JLINK_WriteReg(R7, 0x00000000)  returns 0x00 (0000ms, 0654ms total)
T1F38 000:967 JLINK_WriteReg(R8, 0x00000000)  returns 0x00 (0000ms, 0654ms total)
T1F38 000:967 JLINK_WriteReg(R9, 0x20000124)  returns 0x00 (0000ms, 0654ms total)
T1F38 000:967 JLINK_WriteReg(R10, 0x00000000)  returns 0x00 (0000ms, 0654ms total)
T1F38 000:967 JLINK_WriteReg(R11, 0x00000000)  returns 0x00 (0000ms, 0654ms total)
T1F38 000:967 JLINK_WriteReg(R12, 0x00000000)  returns 0x00 (0000ms, 0654ms total)
T1F38 000:967 JLINK_WriteReg(R13 (SP), 0x20001000)  returns 0x00 (0000ms, 0654ms total)
T1F38 000:967 JLINK_WriteReg(R14, 0x20000001)  returns 0x00 (0001ms, 0655ms total)
T1F38 000:968 JLINK_WriteReg(R15 (PC), 0x20000038)  returns 0x00 (0000ms, 0655ms total)
T1F38 000:968 JLINK_WriteReg(XPSR, 0x01000000)  returns 0x00 (0000ms, 0655ms total)
T1F38 000:968 JLINK_WriteReg(MSP, 0x20001000)  returns 0x00 (0000ms, 0655ms total)
T1F38 000:968 JLINK_WriteReg(PSP, 0x20001000)  returns 0x00 (0000ms, 0655ms total)
T1F38 000:968 JLINK_WriteReg(CFBP, 0x00000000)  returns 0x00 (0000ms, 0655ms total)
T1F38 000:968 JLINK_SetBPEx(Addr = 0x20000000, Type = 0xFFFFFFF2) >0x1D8 JTAG>  returns 0x00000004 (0001ms, 0656ms total)
T1F38 000:969 JLINK_Go() >0x1D0 JTAG> >0x2C8 JTAG> >0x1E8 JTAG> >0x1E8 JTAG> >0x218 JTAG> >0x218 JTAG> (0007ms, 0663ms total)
T1F38 000:976 JLINK_IsHalted() >0x170 JTAG> >0x1598 JTAG> >0x1D8 JTAG>  returns TRUE (0006ms, 0669ms total)
T1F38 000:982 JLINK_ReadReg(R15 (PC))  returns 0x20000000 (0000ms, 0663ms total)
T1F38 000:982 JLINK_ClrBPEx(BPHandle = 0x00000004)  returns 0x00 (0000ms, 0663ms total)
T1F38 000:982 JLINK_ReadReg(R0)  returns 0x00000000 (0000ms, 0663ms total)
T1F38 000:983 JLINK_WriteMem(0x20000128, 0x0400 Bytes, ...) -- Data:  08 0A 00 20 6D 02 00 00 81 02 00 00 83 02 00 00 ... >0x30A0 JTAG>  returns 0x400 (0007ms, 0670ms total)
T1F38 000:990 JLINK_WriteReg(R0, 0x00000000)  returns 0x00 (0000ms, 0670ms total)
T1F38 000:990 JLINK_WriteReg(R1, 0x00000400)  returns 0x00 (0000ms, 0670ms total)
T1F38 000:990 JLINK_WriteReg(R2, 0x20000128)  returns 0x00 (0000ms, 0670ms total)
T1F38 000:990 JLINK_WriteReg(R3, 0x00000000)  returns 0x00 (0000ms, 0670ms total)
T1F38 000:990 JLINK_WriteReg(R4, 0x00000000)  returns 0x00 (0000ms, 0670ms total)
T1F38 000:990 JLINK_WriteReg(R5, 0x00000000)  returns 0x00 (0000ms, 0670ms total)
T1F38 000:990 JLINK_WriteReg(R6, 0x00000000)  returns 0x00 (0000ms, 0670ms total)
T1F38 000:990 JLINK_WriteReg(R7, 0x00000000)  returns 0x00 (0000ms, 0670ms total)
T1F38 000:990 JLINK_WriteReg(R8, 0x00000000)  returns 0x00 (0000ms, 0670ms total)
T1F38 000:990 JLINK_WriteReg(R9, 0x20000124)  returns 0x00 (0000ms, 0670ms total)
T1F38 000:990 JLINK_WriteReg(R10, 0x00000000)  returns 0x00 (0000ms, 0670ms total)
T1F38 000:990 JLINK_WriteReg(R11, 0x00000000)  returns 0x00 (0000ms, 0670ms total)
T1F38 000:990 JLINK_WriteReg(R12, 0x00000000)  returns 0x00 (0000ms, 0670ms total)
T1F38 000:990 JLINK_WriteReg(R13 (SP), 0x20001000)  returns 0x00 (0000ms, 0670ms total)
T1F38 000:990 JLINK_WriteReg(R14, 0x20000001)  returns 0x00 (0000ms, 0670ms total)
T1F38 000:990 JLINK_WriteReg(R15 (PC), 0x20000092)  returns 0x00 (0000ms, 0670ms total)
T1F38 000:990 JLINK_WriteReg(XPSR, 0x01000000)  returns 0x00 (0000ms, 0670ms total)
T1F38 000:990 JLINK_WriteReg(MSP, 0x20001000)  returns 0x00 (0000ms, 0670ms total)
T1F38 000:990 JLINK_WriteReg(PSP, 0x20001000)  returns 0x00 (0000ms, 0670ms total)
T1F38 000:990 JLINK_WriteReg(CFBP, 0x00000000)  returns 0x00 (0001ms, 0671ms total)
T1F38 000:991 JLINK_SetBPEx(Addr = 0x20000000, Type = 0xFFFFFFF2)  returns 0x00000005 (0000ms, 0671ms total)
T1F38 000:991 JLINK_Go() >0x2C8 JTAG> >0x1E8 JTAG> >0x1E8 JTAG> >0x1E8 JTAG> >0x218 JTAG> >0x218 JTAG> (0006ms, 0677ms total)
T1F38 000:997 JLINK_IsHalted() >0x170 JTAG>  returns FALSE (0001ms, 0678ms total)
T1F38 001:056 JLINK_IsHalted() >0x170 JTAG> >0x1598 JTAG> >0x1D8 JTAG>  returns TRUE (0006ms, 0683ms total)
T1F38 001:062 JLINK_ReadReg(R15 (PC))  returns 0x20000000 (0000ms, 0677ms total)
T1F38 001:062 JLINK_ClrBPEx(BPHandle = 0x00000005)  returns 0x00 (0000ms, 0677ms total)
T1F38 001:062 JLINK_ReadReg(R0)  returns 0x00000000 (0000ms, 0677ms total)
T1F38 001:062 JLINK_WriteMem(0x20000128, 0x0400 Bytes, ...) -- Data:  01 25 AB 4E 04 46 0E 28 0C D0 00 21 38 46 01 F0 ... >0x30A0 JTAG>  returns 0x400 (0007ms, 0684ms total)
T1F38 001:069 JLINK_WriteReg(R0, 0x00000400)  returns 0x00 (0000ms, 0684ms total)
T1F38 001:069 JLINK_WriteReg(R1, 0x00000400)  returns 0x00 (0000ms, 0684ms total)
T1F38 001:069 JLINK_WriteReg(R2, 0x20000128)  returns 0x00 (0000ms, 0684ms total)
T1F38 001:069 JLINK_WriteReg(R3, 0x00000000)  returns 0x00 (0000ms, 0684ms total)
T1F38 001:069 JLINK_WriteReg(R4, 0x00000000)  returns 0x00 (0000ms, 0684ms total)
T1F38 001:069 JLINK_WriteReg(R5, 0x00000000)  returns 0x00 (0000ms, 0684ms total)
T1F38 001:069 JLINK_WriteReg(R6, 0x00000000)  returns 0x00 (0000ms, 0684ms total)
T1F38 001:069 JLINK_WriteReg(R7, 0x00000000)  returns 0x00 (0000ms, 0684ms total)
T1F38 001:069 JLINK_WriteReg(R8, 0x00000000)  returns 0x00 (0000ms, 0684ms total)
T1F38 001:069 JLINK_WriteReg(R9, 0x20000124)  returns 0x00 (0000ms, 0684ms total)
T1F38 001:069 JLINK_WriteReg(R10, 0x00000000)  returns 0x00 (0000ms, 0684ms total)
T1F38 001:069 JLINK_WriteReg(R11, 0x00000000)  returns 0x00 (0000ms, 0684ms total)
T1F38 001:069 JLINK_WriteReg(R12, 0x00000000)  returns 0x00 (0000ms, 0684ms total)
T1F38 001:069 JLINK_WriteReg(R13 (SP), 0x20001000)  returns 0x00 (0000ms, 0684ms total)
T1F38 001:069 JLINK_WriteReg(R14, 0x20000001)  returns 0x00 (0000ms, 0684ms total)
T1F38 001:069 JLINK_WriteReg(R15 (PC), 0x20000092)  returns 0x00 (0000ms, 0684ms total)
T1F38 001:069 JLINK_WriteReg(XPSR, 0x01000000)  returns 0x00 (0000ms, 0684ms total)
T1F38 001:069 JLINK_WriteReg(MSP, 0x20001000)  returns 0x00 (0000ms, 0684ms total)
T1F38 001:069 JLINK_WriteReg(PSP, 0x20001000)  returns 0x00 (0000ms, 0684ms total)
T1F38 001:069 JLINK_WriteReg(CFBP, 0x00000000)  returns 0x00 (0000ms, 0684ms total)
T1F38 001:069 JLINK_SetBPEx(Addr = 0x20000000, Type = 0xFFFFFFF2)  returns 0x00000006 (0000ms, 0684ms total)
T1F38 001:069 JLINK_Go() >0x2C8 JTAG> >0x1E8 JTAG> >0x1E8 JTAG> >0x1E8 JTAG> >0x1E8 JTAG> >0x1E8 JTAG> >0x218 JTAG> >0x218 JTAG> (0009ms, 0693ms total)
T1F38 001:078 JLINK_IsHalted() >0x170 JTAG>  returns FALSE (0000ms, 0693ms total)
T1F38 001:082 JLINK_IsHalted() >0x170 JTAG>  returns FALSE (0001ms, 0694ms total)
T1F38 001:084 JLINK_IsHalted() >0x170 JTAG>  returns FALSE (0001ms, 0694ms total)
T1F38 001:086 JLINK_IsHalted() >0x170 JTAG>  returns FALSE (0001ms, 0694ms total)
T1F38 001:088 JLINK_IsHalted() >0x170 JTAG> >0x1598 JTAG> >0x1D8 JTAG>  returns TRUE (0005ms, 0698ms total)
T1F38 001:093 JLINK_ReadReg(R15 (PC))  returns 0x20000000 (0000ms, 0693ms total)
T1F38 001:093 JLINK_ClrBPEx(BPHandle = 0x00000006)  returns 0x00 (0000ms, 0693ms total)
T1F38 001:093 JLINK_ReadReg(R0)  returns 0x00000000 (0000ms, 0693ms total)
T1F38 001:094 JLINK_WriteMem(0x20000128, 0x0400 Bytes, ...) -- Data:  9D F8 00 00 40 1C 8D F8 00 00 9D F8 00 00 64 28 ... >0x30A0 JTAG>  returns 0x400 (0006ms, 0699ms total)
T1F38 001:100 JLINK_WriteReg(R0, 0x00000800)  returns 0x00 (0000ms, 0699ms total)
T1F38 001:100 JLINK_WriteReg(R1, 0x00000400)  returns 0x00 (0000ms, 0699ms total)
T1F38 001:100 JLINK_WriteReg(R2, 0x20000128)  returns 0x00 (0000ms, 0699ms total)
T1F38 001:100 JLINK_WriteReg(R3, 0x00000000)  returns 0x00 (0000ms, 0699ms total)
T1F38 001:100 JLINK_WriteReg(R4, 0x00000000)  returns 0x00 (0000ms, 0699ms total)
T1F38 001:100 JLINK_WriteReg(R5, 0x00000000)  returns 0x00 (0000ms, 0699ms total)
T1F38 001:100 JLINK_WriteReg(R6, 0x00000000)  returns 0x00 (0000ms, 0699ms total)
T1F38 001:100 JLINK_WriteReg(R7, 0x00000000)  returns 0x00 (0000ms, 0699ms total)
T1F38 001:100 JLINK_WriteReg(R8, 0x00000000)  returns 0x00 (0000ms, 0699ms total)
T1F38 001:100 JLINK_WriteReg(R9, 0x20000124)  returns 0x00 (0001ms, 0700ms total)
T1F38 001:101 JLINK_WriteReg(R10, 0x00000000)  returns 0x00 (0000ms, 0700ms total)
T1F38 001:101 JLINK_WriteReg(R11, 0x00000000)  returns 0x00 (0000ms, 0700ms total)
T1F38 001:101 JLINK_WriteReg(R12, 0x00000000)  returns 0x00 (0000ms, 0700ms total)
T1F38 001:101 JLINK_WriteReg(R13 (SP), 0x20001000)  returns 0x00 (0000ms, 0700ms total)
T1F38 001:101 JLINK_WriteReg(R14, 0x20000001)  returns 0x00 (0000ms, 0700ms total)
T1F38 001:101 JLINK_WriteReg(R15 (PC), 0x20000092)  returns 0x00 (0000ms, 0700ms total)
T1F38 001:101 JLINK_WriteReg(XPSR, 0x01000000)  returns 0x00 (0000ms, 0700ms total)
T1F38 001:101 JLINK_WriteReg(MSP, 0x20001000)  returns 0x00 (0000ms, 0700ms total)
T1F38 001:101 JLINK_WriteReg(PSP, 0x20001000)  returns 0x00 (0000ms, 0700ms total)
T1F38 001:101 JLINK_WriteReg(CFBP, 0x00000000)  returns 0x00 (0000ms, 0700ms total)
T1F38 001:101 JLINK_SetBPEx(Addr = 0x20000000, Type = 0xFFFFFFF2)  returns 0x00000007 (0000ms, 0700ms total)
T1F38 001:101 JLINK_Go() >0x2C8 JTAG> >0x1E8 JTAG> >0x1E8 JTAG> >0x1E8 JTAG> >0x1E8 JTAG> >0x1E8 JTAG> >0x218 JTAG> >0x218 JTAG> (0008ms, 0708ms total)
T1F38 001:109 JLINK_IsHalted() >0x170 JTAG>  returns FALSE (0001ms, 0709ms total)
T1F38 001:111 JLINK_IsHalted() >0x170 JTAG>  returns FALSE (0001ms, 0709ms total)
T1F38 001:113 JLINK_IsHalted() >0x170 JTAG>  returns FALSE (0001ms, 0709ms total)
T1F38 001:117 JLINK_IsHalted() >0x170 JTAG>  returns FALSE (0001ms, 0709ms total)
T1F38 001:119 JLINK_IsHalted() >0x170 JTAG> >0x1598 JTAG> >0x1D8 JTAG>  returns TRUE (0006ms, 0714ms total)
T1F38 001:125 JLINK_ReadReg(R15 (PC))  returns 0x20000000 (0000ms, 0708ms total)
T1F38 001:125 JLINK_ClrBPEx(BPHandle = 0x00000007)  returns 0x00 (0000ms, 0708ms total)
T1F38 001:125 JLINK_ReadReg(R0)  returns 0x00000000 (0000ms, 0708ms total)
T1F38 001:126 JLINK_WriteMem(0x20000128, 0x0400 Bytes, ...) -- Data:  72 B1 00 22 11 43 01 D0 75 72 75 71 D8 F8 08 10 ... >0x30A0 JTAG>  returns 0x400 (0007ms, 0715ms total)
T1F38 001:133 JLINK_WriteReg(R0, 0x00000C00)  returns 0x00 (0000ms, 0715ms total)
T1F38 001:133 JLINK_WriteReg(R1, 0x00000400)  returns 0x00 (0000ms, 0715ms total)
T1F38 001:133 JLINK_WriteReg(R2, 0x20000128)  returns 0x00 (0000ms, 0715ms total)
T1F38 001:133 JLINK_WriteReg(R3, 0x00000000)  returns 0x00 (0000ms, 0715ms total)
T1F38 001:133 JLINK_WriteReg(R4, 0x00000000)  returns 0x00 (0000ms, 0715ms total)
T1F38 001:133 JLINK_WriteReg(R5, 0x00000000)  returns 0x00 (0000ms, 0715ms total)
T1F38 001:133 JLINK_WriteReg(R6, 0x00000000)  returns 0x00 (0000ms, 0715ms total)
T1F38 001:133 JLINK_WriteReg(R7, 0x00000000)  returns 0x00 (0000ms, 0715ms total)
T1F38 001:133 JLINK_WriteReg(R8, 0x00000000)  returns 0x00 (0000ms, 0715ms total)
T1F38 001:133 JLINK_WriteReg(R9, 0x20000124)  returns 0x00 (0000ms, 0715ms total)
T1F38 001:133 JLINK_WriteReg(R10, 0x00000000)  returns 0x00 (0000ms, 0715ms total)
T1F38 001:133 JLINK_WriteReg(R11, 0x00000000)  returns 0x00 (0000ms, 0715ms total)
T1F38 001:133 JLINK_WriteReg(R12, 0x00000000)  returns 0x00 (0000ms, 0715ms total)
T1F38 001:133 JLINK_WriteReg(R13 (SP), 0x20001000)  returns 0x00 (0000ms, 0715ms total)
T1F38 001:133 JLINK_WriteReg(R14, 0x20000001)  returns 0x00 (0000ms, 0715ms total)
T1F38 001:133 JLINK_WriteReg(R15 (PC), 0x20000092)  returns 0x00 (0000ms, 0715ms total)
T1F38 001:133 JLINK_WriteReg(XPSR, 0x01000000)  returns 0x00 (0000ms, 0715ms total)
T1F38 001:133 JLINK_WriteReg(MSP, 0x20001000)  returns 0x00 (0000ms, 0715ms total)
T1F38 001:133 JLINK_WriteReg(PSP, 0x20001000)  returns 0x00 (0000ms, 0715ms total)
T1F38 001:133 JLINK_WriteReg(CFBP, 0x00000000)  returns 0x00 (0000ms, 0715ms total)
T1F38 001:133 JLINK_SetBPEx(Addr = 0x20000000, Type = 0xFFFFFFF2)  returns 0x00000008 (0000ms, 0715ms total)
T1F38 001:133 JLINK_Go() >0x2C8 JTAG> >0x1E8 JTAG> >0x1E8 JTAG> >0x1E8 JTAG> >0x1E8 JTAG> >0x1E8 JTAG> >0x218 JTAG> >0x218 JTAG> (0009ms, 0724ms total)
T1F38 001:142 JLINK_IsHalted() >0x170 JTAG>  returns FALSE (0001ms, 0725ms total)
T1F38 001:155 JLINK_IsHalted() >0x170 JTAG> >0x1598 JTAG> >0x1D8 JTAG>  returns TRUE (0005ms, 0729ms total)
T1F38 001:160 JLINK_ReadReg(R15 (PC))  returns 0x20000000 (0000ms, 0724ms total)
T1F38 001:160 JLINK_ClrBPEx(BPHandle = 0x00000008)  returns 0x00 (0000ms, 0724ms total)
T1F38 001:160 JLINK_ReadReg(R0)  returns 0x00000000 (0000ms, 0724ms total)
T1F38 001:161 JLINK_WriteMem(0x20000128, 0x0400 Bytes, ...) -- Data:  64 28 F6 D3 FF 22 11 46 30 46 01 F0 36 F8 04 22 ... >0x30A0 JTAG>  returns 0x400 (0007ms, 0731ms total)
T1F38 001:168 JLINK_WriteReg(R0, 0x00001000)  returns 0x00 (0000ms, 0731ms total)
T1F38 001:168 JLINK_WriteReg(R1, 0x00000400)  returns 0x00 (0000ms, 0731ms total)
T1F38 001:168 JLINK_WriteReg(R2, 0x20000128)  returns 0x00 (0000ms, 0731ms total)
T1F38 001:168 JLINK_WriteReg(R3, 0x00000000)  returns 0x00 (0000ms, 0731ms total)
T1F38 001:168 JLINK_WriteReg(R4, 0x00000000)  returns 0x00 (0000ms, 0731ms total)
T1F38 001:168 JLINK_WriteReg(R5, 0x00000000)  returns 0x00 (0000ms, 0731ms total)
T1F38 001:168 JLINK_WriteReg(R6, 0x00000000)  returns 0x00 (0000ms, 0731ms total)
T1F38 001:168 JLINK_WriteReg(R7, 0x00000000)  returns 0x00 (0000ms, 0731ms total)
T1F38 001:168 JLINK_WriteReg(R8, 0x00000000)  returns 0x00 (0000ms, 0731ms total)
T1F38 001:168 JLINK_WriteReg(R9, 0x20000124)  returns 0x00 (0000ms, 0731ms total)
T1F38 001:168 JLINK_WriteReg(R10, 0x00000000)  returns 0x00 (0000ms, 0731ms total)
T1F38 001:168 JLINK_WriteReg(R11, 0x00000000)  returns 0x00 (0000ms, 0731ms total)
T1F38 001:168 JLINK_WriteReg(R12, 0x00000000)  returns 0x00 (0000ms, 0731ms total)
T1F38 001:169 JLINK_WriteReg(R13 (SP), 0x20001000)  returns 0x00 (0000ms, 0731ms total)
T1F38 001:169 JLINK_WriteReg(R14, 0x20000001)  returns 0x00 (0000ms, 0731ms total)
T1F38 001:169 JLINK_WriteReg(R15 (PC), 0x20000092)  returns 0x00 (0000ms, 0731ms total)
T1F38 001:169 JLINK_WriteReg(XPSR, 0x01000000)  returns 0x00 (0000ms, 0731ms total)
T1F38 001:169 JLINK_WriteReg(MSP, 0x20001000)  returns 0x00 (0000ms, 0731ms total)
T1F38 001:169 JLINK_WriteReg(PSP, 0x20001000)  returns 0x00 (0000ms, 0731ms total)
T1F38 001:169 JLINK_WriteReg(CFBP, 0x00000000)  returns 0x00 (0000ms, 0731ms total)
T1F38 001:169 JLINK_SetBPEx(Addr = 0x20000000, Type = 0xFFFFFFF2)  returns 0x00000009 (0000ms, 0731ms total)
T1F38 001:169 JLINK_Go() >0x2C8 JTAG> >0x1E8 JTAG> >0x1E8 JTAG> >0x1E8 JTAG> >0x1E8 JTAG> >0x1E8 JTAG> >0x218 JTAG> >0x218 JTAG> (0009ms, 0740ms total)
T1F38 001:178 JLINK_IsHalted() >0x170 JTAG>  returns FALSE (0001ms, 0741ms total)
T1F38 001:189 JLINK_IsHalted() >0x170 JTAG> >0x1598 JTAG> >0x1D8 JTAG>  returns TRUE (0006ms, 0746ms total)
T1F38 001:195 JLINK_ReadReg(R15 (PC))  returns 0x20000000 (0000ms, 0740ms total)
T1F38 001:195 JLINK_ClrBPEx(BPHandle = 0x00000009)  returns 0x00 (0000ms, 0740ms total)
T1F38 001:195 JLINK_ReadReg(R0)  returns 0x00000000 (0000ms, 0740ms total)
T1F38 001:196 JLINK_WriteMem(0x20000128, 0x0400 Bytes, ...) -- Data:  A0 F1 10 07 27 44 02 2F 00 D2 00 21 11 2E 04 D9 ... >0x30A0 JTAG>  returns 0x400 (0007ms, 0747ms total)
T1F38 001:203 JLINK_WriteReg(R0, 0x00001400)  returns 0x00 (0000ms, 0747ms total)
T1F38 001:203 JLINK_WriteReg(R1, 0x00000400)  returns 0x00 (0000ms, 0747ms total)
T1F38 001:203 JLINK_WriteReg(R2, 0x20000128)  returns 0x00 (0000ms, 0747ms total)
T1F38 001:203 JLINK_WriteReg(R3, 0x00000000)  returns 0x00 (0000ms, 0747ms total)
T1F38 001:203 JLINK_WriteReg(R4, 0x00000000)  returns 0x00 (0000ms, 0747ms total)
T1F38 001:203 JLINK_WriteReg(R5, 0x00000000)  returns 0x00 (0000ms, 0747ms total)
T1F38 001:203 JLINK_WriteReg(R6, 0x00000000)  returns 0x00 (0000ms, 0747ms total)
T1F38 001:203 JLINK_WriteReg(R7, 0x00000000)  returns 0x00 (0000ms, 0747ms total)
T1F38 001:203 JLINK_WriteReg(R8, 0x00000000)  returns 0x00 (0000ms, 0747ms total)
T1F38 001:203 JLINK_WriteReg(R9, 0x20000124)  returns 0x00 (0000ms, 0747ms total)
T1F38 001:203 JLINK_WriteReg(R10, 0x00000000)  returns 0x00 (0000ms, 0747ms total)
T1F38 001:203 JLINK_WriteReg(R11, 0x00000000)  returns 0x00 (0000ms, 0747ms total)
T1F38 001:203 JLINK_WriteReg(R12, 0x00000000)  returns 0x00 (0000ms, 0747ms total)
T1F38 001:203 JLINK_WriteReg(R13 (SP), 0x20001000)  returns 0x00 (0000ms, 0747ms total)
T1F38 001:203 JLINK_WriteReg(R14, 0x20000001)  returns 0x00 (0000ms, 0747ms total)
T1F38 001:203 JLINK_WriteReg(R15 (PC), 0x20000092)  returns 0x00 (0000ms, 0747ms total)
T1F38 001:203 JLINK_WriteReg(XPSR, 0x01000000)  returns 0x00 (0000ms, 0747ms total)
T1F38 001:203 JLINK_WriteReg(MSP, 0x20001000)  returns 0x00 (0000ms, 0747ms total)
T1F38 001:203 JLINK_WriteReg(PSP, 0x20001000)  returns 0x00 (0000ms, 0747ms total)
T1F38 001:203 JLINK_WriteReg(CFBP, 0x00000000)  returns 0x00 (0000ms, 0747ms total)
T1F38 001:203 JLINK_SetBPEx(Addr = 0x20000000, Type = 0xFFFFFFF2)  returns 0x0000000A (0000ms, 0747ms total)
T1F38 001:203 JLINK_Go() >0x2C8 JTAG> >0x1E8 JTAG> >0x1E8 JTAG> >0x1E8 JTAG> >0x1E8 JTAG> >0x1E8 JTAG> >0x218 JTAG> >0x218 JTAG> (0010ms, 0757ms total)
T1F38 001:213 JLINK_IsHalted() >0x170 JTAG>  returns FALSE (0001ms, 0758ms total)
T1F38 001:215 JLINK_IsHalted() >0x170 JTAG>  returns FALSE (0001ms, 0758ms total)
T1F38 001:217 JLINK_IsHalted() >0x170 JTAG>  returns FALSE (0001ms, 0758ms total)
T1F38 001:219 JLINK_IsHalted() >0x170 JTAG>  returns FALSE (0001ms, 0758ms total)
T1F38 001:221 JLINK_IsHalted() >0x170 JTAG>  returns FALSE (0001ms, 0758ms total)
T1F38 001:223 JLINK_IsHalted() >0x170 JTAG> >0x1598 JTAG> >0x1D8 JTAG>  returns TRUE (0006ms, 0763ms total)
T1F38 001:229 JLINK_ReadReg(R15 (PC))  returns 0x20000000 (0000ms, 0757ms total)
T1F38 001:229 JLINK_ClrBPEx(BPHandle = 0x0000000A)  returns 0x00 (0000ms, 0757ms total)
T1F38 001:229 JLINK_ReadReg(R0)  returns 0x00000000 (0000ms, 0757ms total)
T1F38 001:230 JLINK_WriteMem(0x20000128, 0x0400 Bytes, ...) -- Data:  10 2C 0A D2 12 B1 20 CA E5 40 0D 60 18 B3 10 C8 ... >0x30A0 JTAG>  returns 0x400 (0007ms, 0764ms total)
T1F38 001:237 JLINK_WriteReg(R0, 0x00001800)  returns 0x00 (0000ms, 0764ms total)
T1F38 001:237 JLINK_WriteReg(R1, 0x00000400)  returns 0x00 (0000ms, 0764ms total)
T1F38 001:237 JLINK_WriteReg(R2, 0x20000128)  returns 0x00 (0000ms, 0764ms total)
T1F38 001:237 JLINK_WriteReg(R3, 0x00000000)  returns 0x00 (0000ms, 0764ms total)
T1F38 001:237 JLINK_WriteReg(R4, 0x00000000)  returns 0x00 (0000ms, 0764ms total)
T1F38 001:237 JLINK_WriteReg(R5, 0x00000000)  returns 0x00 (0000ms, 0764ms total)
T1F38 001:237 JLINK_WriteReg(R6, 0x00000000)  returns 0x00 (0000ms, 0764ms total)
T1F38 001:237 JLINK_WriteReg(R7, 0x00000000)  returns 0x00 (0000ms, 0764ms total)
T1F38 001:237 JLINK_WriteReg(R8, 0x00000000)  returns 0x00 (0000ms, 0764ms total)
T1F38 001:237 JLINK_WriteReg(R9, 0x20000124)  returns 0x00 (0000ms, 0764ms total)
T1F38 001:237 JLINK_WriteReg(R10, 0x00000000)  returns 0x00 (0000ms, 0764ms total)
T1F38 001:237 JLINK_WriteReg(R11, 0x00000000)  returns 0x00 (0000ms, 0764ms total)
T1F38 001:237 JLINK_WriteReg(R12, 0x00000000)  returns 0x00 (0000ms, 0764ms total)
T1F38 001:237 JLINK_WriteReg(R13 (SP), 0x20001000)  returns 0x00 (0000ms, 0764ms total)
T1F38 001:237 JLINK_WriteReg(R14, 0x20000001)  returns 0x00 (0000ms, 0764ms total)
T1F38 001:237 JLINK_WriteReg(R15 (PC), 0x20000092)  returns 0x00 (0000ms, 0764ms total)
T1F38 001:237 JLINK_WriteReg(XPSR, 0x01000000)  returns 0x00 (0000ms, 0764ms total)
T1F38 001:237 JLINK_WriteReg(MSP, 0x20001000)  returns 0x00 (0000ms, 0764ms total)
T1F38 001:237 JLINK_WriteReg(PSP, 0x20001000)  returns 0x00 (0000ms, 0764ms total)
T1F38 001:237 JLINK_WriteReg(CFBP, 0x00000000)  returns 0x00 (0000ms, 0764ms total)
T1F38 001:237 JLINK_SetBPEx(Addr = 0x20000000, Type = 0xFFFFFFF2)  returns 0x0000000B (0000ms, 0764ms total)
T1F38 001:237 JLINK_Go() >0x2C8 JTAG> >0x1E8 JTAG> >0x1E8 JTAG> >0x1E8 JTAG> >0x1E8 JTAG> >0x1E8 JTAG> >0x218 JTAG> >0x218 JTAG> (0009ms, 0773ms total)
T1F38 001:246 JLINK_IsHalted() >0x170 JTAG>  returns FALSE (0001ms, 0774ms total)
T1F38 001:263 JLINK_IsHalted() >0x170 JTAG> >0x1598 JTAG> >0x1D8 JTAG>  returns TRUE (0006ms, 0779ms total)
T1F38 001:269 JLINK_ReadReg(R15 (PC))  returns 0x20000000 (0000ms, 0773ms total)
T1F38 001:269 JLINK_ClrBPEx(BPHandle = 0x0000000B)  returns 0x00 (0000ms, 0773ms total)
T1F38 001:269 JLINK_ReadReg(R0)  returns 0x00000000 (0000ms, 0773ms total)
T1F38 001:270 JLINK_WriteMem(0x20000128, 0x0400 Bytes, ...) -- Data:  03 43 6F F0 60 44 53 60 A3 42 0F D1 13 7A 13 F0 ... >0x30A0 JTAG>  returns 0x400 (0007ms, 0780ms total)
T1F38 001:277 JLINK_WriteReg(R0, 0x00001C00)  returns 0x00 (0000ms, 0780ms total)
T1F38 001:277 JLINK_WriteReg(R1, 0x00000400)  returns 0x00 (0000ms, 0780ms total)
T1F38 001:277 JLINK_WriteReg(R2, 0x20000128)  returns 0x00 (0000ms, 0780ms total)
T1F38 001:277 JLINK_WriteReg(R3, 0x00000000)  returns 0x00 (0000ms, 0780ms total)
T1F38 001:277 JLINK_WriteReg(R4, 0x00000000)  returns 0x00 (0000ms, 0780ms total)
T1F38 001:277 JLINK_WriteReg(R5, 0x00000000)  returns 0x00 (0000ms, 0780ms total)
T1F38 001:277 JLINK_WriteReg(R6, 0x00000000)  returns 0x00 (0000ms, 0780ms total)
T1F38 001:277 JLINK_WriteReg(R7, 0x00000000)  returns 0x00 (0000ms, 0780ms total)
T1F38 001:277 JLINK_WriteReg(R8, 0x00000000)  returns 0x00 (0000ms, 0780ms total)
T1F38 001:277 JLINK_WriteReg(R9, 0x20000124)  returns 0x00 (0000ms, 0780ms total)
T1F38 001:277 JLINK_WriteReg(R10, 0x00000000)  returns 0x00 (0000ms, 0780ms total)
T1F38 001:277 JLINK_WriteReg(R11, 0x00000000)  returns 0x00 (0000ms, 0780ms total)
T1F38 001:277 JLINK_WriteReg(R12, 0x00000000)  returns 0x00 (0000ms, 0780ms total)
T1F38 001:277 JLINK_WriteReg(R13 (SP), 0x20001000)  returns 0x00 (0000ms, 0780ms total)
T1F38 001:277 JLINK_WriteReg(R14, 0x20000001)  returns 0x00 (0000ms, 0780ms total)
T1F38 001:277 JLINK_WriteReg(R15 (PC), 0x20000092)  returns 0x00 (0000ms, 0780ms total)
T1F38 001:277 JLINK_WriteReg(XPSR, 0x01000000)  returns 0x00 (0000ms, 0780ms total)
T1F38 001:277 JLINK_WriteReg(MSP, 0x20001000)  returns 0x00 (0000ms, 0780ms total)
T1F38 001:277 JLINK_WriteReg(PSP, 0x20001000)  returns 0x00 (0000ms, 0780ms total)
T1F38 001:277 JLINK_WriteReg(CFBP, 0x00000000)  returns 0x00 (0000ms, 0780ms total)
T1F38 001:277 JLINK_SetBPEx(Addr = 0x20000000, Type = 0xFFFFFFF2)  returns 0x0000000C (0000ms, 0780ms total)
T1F38 001:277 JLINK_Go() >0x2C8 JTAG> >0x1E8 JTAG> >0x1E8 JTAG> >0x1E8 JTAG> >0x1E8 JTAG> >0x1E8 JTAG> >0x218 JTAG> >0x218 JTAG> (0009ms, 0789ms total)
T1F38 001:286 JLINK_IsHalted() >0x170 JTAG>  returns FALSE (0001ms, 0790ms total)
T1F38 001:299 JLINK_IsHalted() >0x170 JTAG> >0x1598 JTAG> >0x1D8 JTAG>  returns TRUE (0006ms, 0795ms total)
T1F38 001:305 JLINK_ReadReg(R15 (PC))  returns 0x20000000 (0000ms, 0789ms total)
T1F38 001:305 JLINK_ClrBPEx(BPHandle = 0x0000000C)  returns 0x00 (0000ms, 0789ms total)
T1F38 001:305 JLINK_ReadReg(R0)  returns 0x00000000 (0000ms, 0789ms total)
T1F38 001:305 JLINK_WriteMem(0x20000128, 0x0400 Bytes, ...) -- Data:  0F 0C 0C FA 02 FC 00 F0 0F 00 23 EA 0C 03 90 40 ... >0x30A0 JTAG>  returns 0x400 (0007ms, 0796ms total)
T1F38 001:312 JLINK_WriteReg(R0, 0x00002000)  returns 0x00 (0000ms, 0796ms total)
T1F38 001:312 JLINK_WriteReg(R1, 0x00000400)  returns 0x00 (0000ms, 0796ms total)
T1F38 001:312 JLINK_WriteReg(R2, 0x20000128)  returns 0x00 (0000ms, 0796ms total)
T1F38 001:312 JLINK_WriteReg(R3, 0x00000000)  returns 0x00 (0000ms, 0796ms total)
T1F38 001:312 JLINK_WriteReg(R4, 0x00000000)  returns 0x00 (0000ms, 0796ms total)
T1F38 001:312 JLINK_WriteReg(R5, 0x00000000)  returns 0x00 (0000ms, 0796ms total)
T1F38 001:312 JLINK_WriteReg(R6, 0x00000000)  returns 0x00 (0000ms, 0796ms total)
T1F38 001:312 JLINK_WriteReg(R7, 0x00000000)  returns 0x00 (0000ms, 0796ms total)
T1F38 001:312 JLINK_WriteReg(R8, 0x00000000)  returns 0x00 (0000ms, 0796ms total)
T1F38 001:312 JLINK_WriteReg(R9, 0x20000124)  returns 0x00 (0000ms, 0796ms total)
T1F38 001:312 JLINK_WriteReg(R10, 0x00000000)  returns 0x00 (0000ms, 0796ms total)
T1F38 001:312 JLINK_WriteReg(R11, 0x00000000)  returns 0x00 (0001ms, 0797ms total)
T1F38 001:313 JLINK_WriteReg(R12, 0x00000000)  returns 0x00 (0000ms, 0797ms total)
T1F38 001:313 JLINK_WriteReg(R13 (SP), 0x20001000)  returns 0x00 (0000ms, 0797ms total)
T1F38 001:313 JLINK_WriteReg(R14, 0x20000001)  returns 0x00 (0000ms, 0797ms total)
T1F38 001:313 JLINK_WriteReg(R15 (PC), 0x20000092)  returns 0x00 (0000ms, 0797ms total)
T1F38 001:313 JLINK_WriteReg(XPSR, 0x01000000)  returns 0x00 (0000ms, 0797ms total)
T1F38 001:313 JLINK_WriteReg(MSP, 0x20001000)  returns 0x00 (0000ms, 0797ms total)
T1F38 001:313 JLINK_WriteReg(PSP, 0x20001000)  returns 0x00 (0000ms, 0797ms total)
T1F38 001:313 JLINK_WriteReg(CFBP, 0x00000000)  returns 0x00 (0000ms, 0797ms total)
T1F38 001:313 JLINK_SetBPEx(Addr = 0x20000000, Type = 0xFFFFFFF2)  returns 0x0000000D (0000ms, 0797ms total)
T1F38 001:313 JLINK_Go() >0x2C8 JTAG> >0x1E8 JTAG> >0x1E8 JTAG> >0x1E8 JTAG> >0x1E8 JTAG> >0x1E8 JTAG> >0x218 JTAG> >0x218 JTAG> (0009ms, 0806ms total)
T1F38 001:322 JLINK_IsHalted() >0x170 JTAG>  returns FALSE (0001ms, 0807ms total)
T1F38 001:324 JLINK_IsHalted() >0x170 JTAG>  returns FALSE (0000ms, 0806ms total)
T1F38 001:325 JLINK_IsHalted() >0x170 JTAG>  returns FALSE (0001ms, 0807ms total)
T1F38 001:327 JLINK_IsHalted() >0x170 JTAG>  returns FALSE (0001ms, 0807ms total)
T1F38 001:329 JLINK_IsHalted() >0x170 JTAG>  returns FALSE (0001ms, 0807ms total)
T1F38 001:331 JLINK_IsHalted() >0x170 JTAG> >0x1598 JTAG> >0x1D8 JTAG>  returns TRUE (0006ms, 0812ms total)
T1F38 001:337 JLINK_ReadReg(R15 (PC))  returns 0x20000000 (0000ms, 0806ms total)
T1F38 001:337 JLINK_ClrBPEx(BPHandle = 0x0000000D)  returns 0x00 (0000ms, 0806ms total)
T1F38 001:337 JLINK_ReadReg(R0)  returns 0x00000000 (0000ms, 0806ms total)
T1F38 001:338 JLINK_WriteMem(0x20000128, 0x0400 Bytes, ...) -- Data:  70 47 01 60 70 47 81 68 41 F0 02 01 81 60 70 47 ... >0x30A0 JTAG>  returns 0x400 (0007ms, 0813ms total)
T1F38 001:345 JLINK_WriteReg(R0, 0x00002400)  returns 0x00 (0000ms, 0813ms total)
T1F38 001:345 JLINK_WriteReg(R1, 0x00000400)  returns 0x00 (0000ms, 0813ms total)
T1F38 001:345 JLINK_WriteReg(R2, 0x20000128)  returns 0x00 (0000ms, 0813ms total)
T1F38 001:345 JLINK_WriteReg(R3, 0x00000000)  returns 0x00 (0000ms, 0813ms total)
T1F38 001:345 JLINK_WriteReg(R4, 0x00000000)  returns 0x00 (0000ms, 0813ms total)
T1F38 001:345 JLINK_WriteReg(R5, 0x00000000)  returns 0x00 (0000ms, 0813ms total)
T1F38 001:345 JLINK_WriteReg(R6, 0x00000000)  returns 0x00 (0000ms, 0813ms total)
T1F38 001:345 JLINK_WriteReg(R7, 0x00000000)  returns 0x00 (0000ms, 0813ms total)
T1F38 001:345 JLINK_WriteReg(R8, 0x00000000)  returns 0x00 (0000ms, 0813ms total)
T1F38 001:345 JLINK_WriteReg(R9, 0x20000124)  returns 0x00 (0000ms, 0813ms total)
T1F38 001:345 JLINK_WriteReg(R10, 0x00000000)  returns 0x00 (0000ms, 0813ms total)
T1F38 001:345 JLINK_WriteReg(R11, 0x00000000)  returns 0x00 (0000ms, 0813ms total)
T1F38 001:345 JLINK_WriteReg(R12, 0x00000000)  returns 0x00 (0000ms, 0813ms total)
T1F38 001:345 JLINK_WriteReg(R13 (SP), 0x20001000)  returns 0x00 (0000ms, 0813ms total)
T1F38 001:345 JLINK_WriteReg(R14, 0x20000001)  returns 0x00 (0000ms, 0813ms total)
T1F38 001:345 JLINK_WriteReg(R15 (PC), 0x20000092)  returns 0x00 (0000ms, 0813ms total)
T1F38 001:345 JLINK_WriteReg(XPSR, 0x01000000)  returns 0x00 (0000ms, 0813ms total)
T1F38 001:345 JLINK_WriteReg(MSP, 0x20001000)  returns 0x00 (0000ms, 0813ms total)
T1F38 001:345 JLINK_WriteReg(PSP, 0x20001000)  returns 0x00 (0000ms, 0813ms total)
T1F38 001:345 JLINK_WriteReg(CFBP, 0x00000000)  returns 0x00 (0000ms, 0813ms total)
T1F38 001:345 JLINK_SetBPEx(Addr = 0x20000000, Type = 0xFFFFFFF2)  returns 0x0000000E (0000ms, 0813ms total)
T1F38 001:345 JLINK_Go() >0x2C8 JTAG> >0x1E8 JTAG> >0x1E8 JTAG> >0x1E8 JTAG> >0x1E8 JTAG> >0x1E8 JTAG> >0x218 JTAG> >0x218 JTAG> (0010ms, 0823ms total)
T1F38 001:355 JLINK_IsHalted() >0x170 JTAG>  returns FALSE (0001ms, 0824ms total)
T1F38 001:370 JLINK_IsHalted() >0x170 JTAG> >0x1598 JTAG> >0x1D8 JTAG>  returns TRUE (0006ms, 0829ms total)
T1F38 001:376 JLINK_ReadReg(R15 (PC))  returns 0x20000000 (0000ms, 0823ms total)
T1F38 001:376 JLINK_ClrBPEx(BPHandle = 0x0000000E)  returns 0x00 (0000ms, 0823ms total)
T1F38 001:376 JLINK_ReadReg(R0)  returns 0x00000000 (0000ms, 0823ms total)
T1F38 001:377 JLINK_WriteMem(0x20000128, 0x0400 Bytes, ...) -- Data:  10 1F 00 00 20 1E 00 00 00 00 00 00 00 00 00 00 ... >0x30A0 JTAG>  returns 0x400 (0007ms, 0830ms total)
T1F38 001:384 JLINK_WriteReg(R0, 0x00002800)  returns 0x00 (0000ms, 0830ms total)
T1F38 001:384 JLINK_WriteReg(R1, 0x00000400)  returns 0x00 (0000ms, 0830ms total)
T1F38 001:384 JLINK_WriteReg(R2, 0x20000128)  returns 0x00 (0000ms, 0830ms total)
T1F38 001:384 JLINK_WriteReg(R3, 0x00000000)  returns 0x00 (0000ms, 0830ms total)
T1F38 001:384 JLINK_WriteReg(R4, 0x00000000)  returns 0x00 (0000ms, 0830ms total)
T1F38 001:384 JLINK_WriteReg(R5, 0x00000000)  returns 0x00 (0000ms, 0830ms total)
T1F38 001:384 JLINK_WriteReg(R6, 0x00000000)  returns 0x00 (0000ms, 0830ms total)
T1F38 001:384 JLINK_WriteReg(R7, 0x00000000)  returns 0x00 (0000ms, 0830ms total)
T1F38 001:384 JLINK_WriteReg(R8, 0x00000000)  returns 0x00 (0000ms, 0830ms total)
T1F38 001:384 JLINK_WriteReg(R9, 0x20000124)  returns 0x00 (0000ms, 0830ms total)
T1F38 001:384 JLINK_WriteReg(R10, 0x00000000)  returns 0x00 (0000ms, 0830ms total)
T1F38 001:384 JLINK_WriteReg(R11, 0x00000000)  returns 0x00 (0000ms, 0830ms total)
T1F38 001:384 JLINK_WriteReg(R12, 0x00000000)  returns 0x00 (0000ms, 0830ms total)
T1F38 001:384 JLINK_WriteReg(R13 (SP), 0x20001000)  returns 0x00 (0000ms, 0830ms total)
T1F38 001:384 JLINK_WriteReg(R14, 0x20000001)  returns 0x00 (0000ms, 0830ms total)
T1F38 001:384 JLINK_WriteReg(R15 (PC), 0x20000092)  returns 0x00 (0000ms, 0830ms total)
T1F38 001:384 JLINK_WriteReg(XPSR, 0x01000000)  returns 0x00 (0000ms, 0830ms total)
T1F38 001:384 JLINK_WriteReg(MSP, 0x20001000)  returns 0x00 (0000ms, 0830ms total)
T1F38 001:384 JLINK_WriteReg(PSP, 0x20001000)  returns 0x00 (0000ms, 0830ms total)
T1F38 001:384 JLINK_WriteReg(CFBP, 0x00000000)  returns 0x00 (0000ms, 0830ms total)
T1F38 001:384 JLINK_SetBPEx(Addr = 0x20000000, Type = 0xFFFFFFF2)  returns 0x0000000F (0000ms, 0830ms total)
T1F38 001:384 JLINK_Go() >0x2C8 JTAG> >0x1E8 JTAG> >0x1E8 JTAG> >0x1E8 JTAG> >0x1E8 JTAG> >0x1E8 JTAG> >0x218 JTAG> >0x218 JTAG> (0010ms, 0840ms total)
T1F38 001:394 JLINK_IsHalted() >0x170 JTAG>  returns FALSE (0001ms, 0841ms total)
T1F38 001:405 JLINK_IsHalted() >0x170 JTAG> >0x1598 JTAG> >0x1D8 JTAG>  returns TRUE (0005ms, 0845ms total)
T1F38 001:410 JLINK_ReadReg(R15 (PC))  returns 0x20000000 (0000ms, 0840ms total)
T1F38 001:410 JLINK_ClrBPEx(BPHandle = 0x0000000F)  returns 0x00 (0000ms, 0840ms total)
T1F38 001:410 JLINK_ReadReg(R0)  returns 0x00000000 (0000ms, 0840ms total)
T1F38 001:411 JLINK_WriteMem(0x20000128, 0x0400 Bytes, ...) -- Data:  20 08 00 00 00 00 00 00 C0 1F 00 00 E0 1F 00 00 ... >0x30A0 JTAG>  returns 0x400 (0007ms, 0847ms total)
T1F38 001:418 JLINK_WriteReg(R0, 0x00002C00)  returns 0x00 (0000ms, 0847ms total)
T1F38 001:418 JLINK_WriteReg(R1, 0x00000400)  returns 0x00 (0000ms, 0847ms total)
T1F38 001:418 JLINK_WriteReg(R2, 0x20000128)  returns 0x00 (0000ms, 0847ms total)
T1F38 001:418 JLINK_WriteReg(R3, 0x00000000)  returns 0x00 (0000ms, 0847ms total)
T1F38 001:418 JLINK_WriteReg(R4, 0x00000000)  returns 0x00 (0000ms, 0847ms total)
T1F38 001:418 JLINK_WriteReg(R5, 0x00000000)  returns 0x00 (0000ms, 0847ms total)
T1F38 001:418 JLINK_WriteReg(R6, 0x00000000)  returns 0x00 (0000ms, 0847ms total)
T1F38 001:418 JLINK_WriteReg(R7, 0x00000000)  returns 0x00 (0000ms, 0847ms total)
T1F38 001:418 JLINK_WriteReg(R8, 0x00000000)  returns 0x00 (0000ms, 0847ms total)
T1F38 001:418 JLINK_WriteReg(R9, 0x20000124)  returns 0x00 (0000ms, 0847ms total)
T1F38 001:418 JLINK_WriteReg(R10, 0x00000000)  returns 0x00 (0000ms, 0847ms total)
T1F38 001:418 JLINK_WriteReg(R11, 0x00000000)  returns 0x00 (0001ms, 0848ms total)
T1F38 001:419 JLINK_WriteReg(R12, 0x00000000)  returns 0x00 (0000ms, 0848ms total)
T1F38 001:419 JLINK_WriteReg(R13 (SP), 0x20001000)  returns 0x00 (0000ms, 0848ms total)
T1F38 001:419 JLINK_WriteReg(R14, 0x20000001)  returns 0x00 (0000ms, 0848ms total)
T1F38 001:419 JLINK_WriteReg(R15 (PC), 0x20000092)  returns 0x00 (0000ms, 0848ms total)
T1F38 001:419 JLINK_WriteReg(XPSR, 0x01000000)  returns 0x00 (0000ms, 0848ms total)
T1F38 001:419 JLINK_WriteReg(MSP, 0x20001000)  returns 0x00 (0000ms, 0848ms total)
T1F38 001:419 JLINK_WriteReg(PSP, 0x20001000)  returns 0x00 (0000ms, 0848ms total)
T1F38 001:419 JLINK_WriteReg(CFBP, 0x00000000)  returns 0x00 (0000ms, 0848ms total)
T1F38 001:419 JLINK_SetBPEx(Addr = 0x20000000, Type = 0xFFFFFFF2)  returns 0x00000010 (0000ms, 0848ms total)
T1F38 001:419 JLINK_Go() >0x2C8 JTAG> >0x1E8 JTAG> >0x1E8 JTAG> >0x1E8 JTAG> >0x1E8 JTAG> >0x1E8 JTAG> >0x218 JTAG> >0x218 JTAG> (0009ms, 0857ms total)
T1F38 001:428 JLINK_IsHalted() >0x170 JTAG>  returns FALSE (0001ms, 0858ms total)
T1F38 001:432 JLINK_IsHalted() >0x170 JTAG>  returns FALSE (0000ms, 0857ms total)
T1F38 001:433 JLINK_IsHalted() >0x170 JTAG>  returns FALSE (0001ms, 0858ms total)
T1F38 001:435 JLINK_IsHalted() >0x170 JTAG>  returns FALSE (0001ms, 0858ms total)
T1F38 001:437 JLINK_IsHalted() >0x170 JTAG> >0x1598 JTAG> >0x1D8 JTAG>  returns TRUE (0006ms, 0863ms total)
T1F38 001:443 JLINK_ReadReg(R15 (PC))  returns 0x20000000 (0000ms, 0857ms total)
T1F38 001:443 JLINK_ClrBPEx(BPHandle = 0x00000010)  returns 0x00 (0000ms, 0857ms total)
T1F38 001:443 JLINK_ReadReg(R0)  returns 0x00000000 (0000ms, 0857ms total)
T1F38 001:443 JLINK_WriteMem(0x20000128, 0x0400 Bytes, ...) -- Data:  00 00 00 00 00 00 00 00 00 00 00 00 00 00 00 00 ... >0x30A0 JTAG>  returns 0x400 (0008ms, 0865ms total)
T1F38 001:451 JLINK_WriteReg(R0, 0x00003000)  returns 0x00 (0000ms, 0865ms total)
T1F38 001:451 JLINK_WriteReg(R1, 0x00000400)  returns 0x00 (0000ms, 0865ms total)
T1F38 001:451 JLINK_WriteReg(R2, 0x20000128)  returns 0x00 (0000ms, 0865ms total)
T1F38 001:451 JLINK_WriteReg(R3, 0x00000000)  returns 0x00 (0000ms, 0865ms total)
T1F38 001:451 JLINK_WriteReg(R4, 0x00000000)  returns 0x00 (0000ms, 0865ms total)
T1F38 001:451 JLINK_WriteReg(R5, 0x00000000)  returns 0x00 (0000ms, 0865ms total)
T1F38 001:451 JLINK_WriteReg(R6, 0x00000000)  returns 0x00 (0000ms, 0865ms total)
T1F38 001:451 JLINK_WriteReg(R7, 0x00000000)  returns 0x00 (0000ms, 0865ms total)
T1F38 001:451 JLINK_WriteReg(R8, 0x00000000)  returns 0x00 (0000ms, 0865ms total)
T1F38 001:451 JLINK_WriteReg(R9, 0x20000124)  returns 0x00 (0000ms, 0865ms total)
T1F38 001:451 JLINK_WriteReg(R10, 0x00000000)  returns 0x00 (0000ms, 0865ms total)
T1F38 001:451 JLINK_WriteReg(R11, 0x00000000)  returns 0x00 (0000ms, 0865ms total)
T1F38 001:451 JLINK_WriteReg(R12, 0x00000000)  returns 0x00 (0000ms, 0865ms total)
T1F38 001:451 JLINK_WriteReg(R13 (SP), 0x20001000)  returns 0x00 (0000ms, 0865ms total)
T1F38 001:451 JLINK_WriteReg(R14, 0x20000001)  returns 0x00 (0000ms, 0865ms total)
T1F38 001:451 JLINK_WriteReg(R15 (PC), 0x20000092)  returns 0x00 (0000ms, 0865ms total)
T1F38 001:451 JLINK_WriteReg(XPSR, 0x01000000)  returns 0x00 (0000ms, 0865ms total)
T1F38 001:451 JLINK_WriteReg(MSP, 0x20001000)  returns 0x00 (0000ms, 0865ms total)
T1F38 001:451 JLINK_WriteReg(PSP, 0x20001000)  returns 0x00 (0000ms, 0865ms total)
T1F38 001:451 JLINK_WriteReg(CFBP, 0x00000000)  returns 0x00 (0000ms, 0865ms total)
T1F38 001:451 JLINK_SetBPEx(Addr = 0x20000000, Type = 0xFFFFFFF2)  returns 0x00000011 (0000ms, 0865ms total)
T1F38 001:451 JLINK_Go() >0x2C8 JTAG> >0x1E8 JTAG> >0x1E8 JTAG> >0x1E8 JTAG> >0x1E8 JTAG> >0x1E8 JTAG> >0x218 JTAG> >0x218 JTAG> (0010ms, 0875ms total)
T1F38 001:461 JLINK_IsHalted() >0x170 JTAG>  returns FALSE (0001ms, 0876ms total)
T1F38 001:472 JLINK_IsHalted() >0x170 JTAG> >0x1598 JTAG> >0x1D8 JTAG>  returns TRUE (0006ms, 0881ms total)
T1F38 001:478 JLINK_ReadReg(R15 (PC))  returns 0x20000000 (0000ms, 0875ms total)
T1F38 001:478 JLINK_ClrBPEx(BPHandle = 0x00000011)  returns 0x00 (0000ms, 0875ms total)
T1F38 001:478 JLINK_ReadReg(R0)  returns 0x00000000 (0000ms, 0875ms total)
T1F38 001:478 JLINK_WriteMem(0x20000128, 0x0400 Bytes, ...) -- Data:  00 00 00 00 00 00 00 00 00 00 00 00 00 00 00 00 ... >0x30A0 JTAG>  returns 0x400 (0007ms, 0882ms total)
T1F38 001:485 JLINK_WriteReg(R0, 0x00003400)  returns 0x00 (0000ms, 0882ms total)
T1F38 001:485 JLINK_WriteReg(R1, 0x00000400)  returns 0x00 (0000ms, 0882ms total)
